Frequenz (Hz)	Gain (dB)	Gain (U_out/U_in)	Phase
100.000000	0.113813	1.013189	0.700000
109.647820	0.113813	1.013189	0.800000
120.226443	0.105243	1.012190	0.000000
131.825674	0.105243	1.012190	0.000000
144.543977	0.105243	1.012190	0.000000
158.489319	0.105243	1.012190	0.000000
173.780083	-0.006946	0.999201	0.000000
190.546072	-0.006946	0.999201	0.000000
208.929613	-0.006946	0.999201	0.000000
229.086765	-0.006946	0.999201	0.000000
251.188643	-0.006946	0.999201	0.000000
275.422870	-0.006946	0.999201	0.000000
301.995172	-0.006946	0.999201	0.000000
331.131121	0.040920	1.004722	-1.200000
363.078055	0.040920	1.004722	-1.300000
398.107171	0.040920	1.004722	-0.800000
436.515832	0.040920	1.004722	-0.800000
478.630092	0.040920	1.004722	0.000000
524.807460	0.040920	1.004722	0.000000
575.439937	0.040920	1.004722	0.000000
630.957344	0.040920	1.004722	0.000000
691.830971	0.040920	1.004722	0.000000
758.577575	0.040920	1.004722	0.000000
831.763771	0.040920	1.004722	-0.800000
912.010839	-0.006946	0.999201	0.000000
1000.000000	-0.006946	0.999201	0.000000
1096.478196	-0.006946	0.999201	0.000000
1202.264435	-0.006946	0.999201	1.200000
1318.256739	-0.006946	0.999201	0.000000
1445.439771	-0.006946	0.999201	0.000000
1584.893192	-0.006946	0.999201	0.000000
1737.800829	-0.006946	0.999201	0.000000
1905.460718	-0.006946	0.999201	0.000000
2089.296131	-0.006946	0.999201	0.000000
2290.867653	-0.006946	0.999201	0.000000
2511.886432	-0.006946	0.999201	0.000000
2754.228703	-0.006946	0.999201	0.000000
3019.951720	-0.006946	0.999201	0.000000
3311.311215	-0.006946	0.999201	0.000000
3630.780548	-0.006946	0.999201	0.000000
3981.071706	-0.006946	0.999201	0.000000
4365.158322	-0.006946	0.999201	0.000000
4786.300923	-0.006946	0.999201	0.000000
5248.074602	-0.006946	0.999201	0.000000
5754.399373	-0.006946	0.999201	0.000000
6309.573445	-0.006946	0.999201	0.000000
6918.309709	-0.006946	0.999201	0.900000
7585.775750	-0.006946	0.999201	0.000000
8317.637711	-0.006946	0.999201	0.000000
9120.108394	-0.006946	0.999201	0.000000
10000.000000	-0.006946	0.999201	0.000000
10964.781961	-0.006946	0.999201	0.000000
12022.644346	-0.006946	0.999201	0.000000
13182.567386	-0.006946	0.999201	0.900000
14454.397707	-0.006946	0.999201	0.000000
15848.931925	-0.006946	0.999201	0.000000
17378.008287	-0.006946	0.999201	0.000000
19054.607180	-0.006946	0.999201	0.000000
20892.961309	-0.006946	0.999201	0.000000
22908.676528	-0.006946	0.999201	0.000000
25118.864315	-0.006946	0.999201	0.000000
27542.287033	-0.006946	0.999201	0.000000
30199.517204	-0.006946	0.999201	0.000000
33113.112148	-0.006946	0.999201	0.000000
36307.805477	-0.006946	0.999201	0.000000
39810.717055	-0.006946	0.999201	0.000000
43651.583224	-0.006946	0.999201	0.000000
47863.009232	-0.006946	0.999201	0.000000
52480.746025	-0.006946	0.999201	0.000000
57543.993734	-0.006946	0.999201	0.000000
63095.734448	-0.006946	0.999201	0.000000
69183.097092	-0.006946	0.999201	0.000000
75857.757503	-0.006946	0.999201	0.000000
83176.377110	-0.006946	0.999201	0.000000
91201.083936	-0.006946	0.999201	0.000000
100000.000000	-0.006946	0.999201	0.000000
109647.819614	-0.006946	0.999201	0.000000
120226.443462	-0.006946	0.999201	0.000000
131825.673856	-0.006946	0.999201	-1.300000
144543.977075	-0.006946	0.999201	0.000000
158489.319246	-0.006946	0.999201	0.000000
173780.082875	-0.006946	0.999201	0.000000
190546.071796	0.047604	1.005496	0.000000
208929.613085	-0.006946	0.999201	0.000000
229086.765277	0.047604	1.005496	0.000000
251188.643151	0.100955	1.011691	0.000000
275422.870334	0.100955	1.011691	0.000000
301995.172040	0.100955	1.011691	0.000000
331131.121483	0.100955	1.011691	0.000000
363078.054770	0.100955	1.011691	0.000000
398107.170553	0.100955	1.011691	0.000000
436515.832240	0.148821	1.017281	-1.200000
478630.092323	0.148821	1.017281	0.000000
524807.460250	0.196952	1.022934	-0.800000
575439.937337	0.196952	1.022934	-0.800000
630957.344480	0.196952	1.022934	-0.900000
691830.970919	0.244469	1.028545	-2.000000
758577.575029	0.293134	1.034324	-1.100000
831763.771103	0.390393	1.045971	-1.200000
912010.839356	0.390393	1.045971	-1.300000
1000000.000000	0.489662	1.057994	-1.500000
100.000000	-0.006946	0.999201	0.000000
112.201845	-0.006946	0.999201	0.800000
125.892541	-0.006946	0.999201	0.000000
141.253754	-0.006946	0.999201	0.000000
158.489319	-0.006946	0.999201	0.000000
177.827941	-0.006946	0.999201	0.000000
199.526231	-0.006946	0.999201	0.000000
223.872114	-0.006946	0.999201	0.000000
251.188643	-0.006946	0.999201	0.000000
281.838293	-0.006946	0.999201	0.000000
316.227766	0.040920	1.004722	0.000000
354.813389	0.040920	1.004722	-1.200000
398.107171	0.040920	1.004722	0.000000
446.683592	0.040920	1.004722	0.000000
501.187234	0.040920	1.004722	-0.800000
562.341325	0.040920	1.004722	0.000000
630.957344	0.040920	1.004722	0.000000
707.945784	0.040920	1.004722	0.000000
794.328235	-0.006946	0.999201	0.000000
891.250938	-0.006946	0.999201	0.800000
1000.000000	-0.006946	0.999201	0.000000
1122.018454	-0.006946	0.999201	0.000000
1258.925412	-0.006946	0.999201	0.000000
1412.537545	-0.006946	0.999201	1.200000
1584.893192	-0.006946	0.999201	0.000000
1778.279410	-0.006946	0.999201	0.000000
1995.262315	-0.006946	0.999201	0.000000
2238.721139	-0.006946	0.999201	0.000000
2511.886432	-0.006946	0.999201	0.000000
2818.382931	-0.006946	0.999201	0.000000
3162.277660	-0.006946	0.999201	0.000000
3548.133892	-0.006946	0.999201	0.000000
3981.071706	-0.006946	0.999201	0.800000
4466.835922	-0.006946	0.999201	0.000000
5011.872336	-0.006946	0.999201	0.000000
5623.413252	-0.006946	0.999201	0.000000
6309.573445	-0.006946	0.999201	0.000000
7079.457844	-0.006946	0.999201	0.000000
7943.282347	-0.006946	0.999201	0.000000
8912.509381	-0.006946	0.999201	0.000000
10000.000000	-0.006946	0.999201	0.000000
11220.184543	-0.006946	0.999201	0.000000
12589.254118	-0.006946	0.999201	0.000000
14125.375446	-0.006946	0.999201	0.000000
15848.931925	-0.006946	0.999201	0.000000
17782.794100	-0.006946	0.999201	1.000000
19952.623150	-0.006946	0.999201	0.000000
22387.211386	-0.006946	0.999201	0.000000
25118.864315	-0.006946	0.999201	0.000000
28183.829313	-0.006946	0.999201	0.000000
31622.776602	-0.006946	0.999201	0.000000
35481.338923	-0.006946	0.999201	0.000000
39810.717055	-0.006946	0.999201	0.000000
44668.359215	-0.006946	0.999201	0.000000
50118.723363	-0.006946	0.999201	0.000000
56234.132519	-0.006946	0.999201	0.000000
63095.734448	-0.006946	0.999201	0.000000
70794.578438	-0.006946	0.999201	0.000000
79432.823472	-0.006946	0.999201	0.000000
89125.093813	-0.006946	0.999201	0.000000
100000.000000	-0.006946	0.999201	0.000000
112201.845430	-0.006946	0.999201	0.000000
125892.541179	-0.006946	0.999201	0.000000
141253.754462	-0.006946	0.999201	0.000000
158489.319246	0.047604	1.005496	0.000000
177827.941004	-0.006946	0.999201	0.000000
199526.231497	-0.006946	0.999201	0.000000
223872.113857	0.100955	1.011691	0.000000
251188.643151	0.100955	1.011691	0.000000
281838.293126	0.100955	1.011691	0.000000
316227.766017	0.100955	1.011691	-1.100000
354813.389234	0.100955	1.011691	0.000000
398107.170553	0.100955	1.011691	0.000000
446683.592151	0.148821	1.017281	-0.800000
501187.233627	0.196952	1.022934	-0.800000
562341.325190	0.196952	1.022934	0.000000
630957.344480	0.196952	1.022934	0.000000
707945.784384	0.293134	1.034324	-1.200000
794328.234724	0.293134	1.034324	-1.300000
891250.938134	0.390393	1.045971	-0.800000
1000000.000000	0.489662	1.057994	-0.800000
1122018.454302	0.589160	1.070183	-1.900000
1258925.411794	0.792581	1.095542	-3.200000
1412537.544623	1.000881	1.122132	-1.200000
1584893.192461	1.267740	1.157143	-2.700000
1778279.410039	1.543057	1.194408	-3.000000
1995262.314969	2.003860	1.259485	-3.400000
2238721.138568	2.562594	1.343166	-5.700000
2511886.431510	3.303959	1.462844	-4.300000
2818382.931264	4.180230	1.618123	-7.200000
3162277.660168	5.679530	1.922988	-9.400000
3548133.892336	7.403037	2.345049	-10.600000
3981071.705535	10.971357	3.536453	-20.400000
4466835.921510	16.251051	6.494602	-41.000000
5011872.336273	18.477544	8.392226	-118.600000
5623413.251903	11.473679	3.747002	-159.100000
6309573.444802	6.691321	2.160559	-167.900000
7079457.843841	3.509460	1.497866	-173.900000
7943282.347243	1.446632	1.181222	-177.000000
8912509.381337	0.330142	1.038741	-179.500000
1.000000E+7	-0.036136	0.995848	-181.100000
